T04DC 000:009.932   SEGGER J-Link V6.70e Log File
T04DC 000:010.028   DLL Compiled: Apr 17 2020 17:55:05
T04DC 000:010.033   Logging started @ 2023-12-04 03:50
T04DC 000:010.040 JLINK_SetWarnOutHandler(...)
T04DC 000:010.046 - 0.007ms
T04DC 000:010.052 JLINK_OpenEx(...)
T04DC 000:012.364   Firmware: J-Link V9 compiled May  7 2021 16:26:12
T04DC 000:012.507   Decompressing FW timestamp took 113 us
T04DC 000:023.335   Hardware: V9.40
T04DC 000:023.361   S/N: 69404338
T04DC 000:023.368   OEM: SEGGER
T04DC 000:023.374   Feature(s): RDI, GDB, FlashDL, FlashBP, JFlash
T04DC 000:025.298   TELNET listener socket opened on port 19021
T04DC 000:025.533   WEBSRV Starting webserver
T04DC 000:025.661   WEBSRV Webserver running on local port 19080
T04DC 000:025.671 - 15.621ms returns "O.K."
T04DC 000:025.684 JLINK_GetEmuCaps()
T04DC 000:025.689 - 0.007ms returns 0xB9FF7BBF
T04DC 000:025.696 JLINK_TIF_GetAvailable(...)
T04DC 000:026.096 - 0.424ms
T04DC 000:026.131 JLINK_SetErrorOutHandler(...)
T04DC 000:026.136 - 0.007ms
T04DC 000:026.152 JLINK_ExecCommand("ProjectFile = "D:\test\JLinkSettings.ini"", ...). 
T04DC 000:032.918   Ref file found at: C:\Keil_v5\ARM\Segger\JLinkDevices.ref
T04DC 000:033.055   XML referenced by ref file: C:\Program Files (x86)\SEGGER\JLink\JLinkDevices.xml
T04DC 000:033.617   C:\Program Files (x86)\SEGGER\JLink\JLinkDevices.xml evaluated successfully.
T04DC 000:102.242   Device "MIMXRT1052XXXXB" selected.
T04DC 000:102.666 - 76.526ms returns 0x00
T04DC 000:102.707 JLINK_ExecCommand("Device = MIMXRT1052CVL5B", ...). 
T04DC 000:107.995   Device "MIMXRT1052XXXXB" selected.
T04DC 000:108.432 - 5.643ms returns 0x00
T04DC 000:108.447 JLINK_ExecCommand("DisableConnectionTimeout", ...). 
T04DC 000:108.456 - 0.005ms returns 0x01
T04DC 000:108.462 JLINK_GetHardwareVersion()
T04DC 000:108.467 - 0.006ms returns 0x16F30
T04DC 000:108.472 JLINK_GetDLLVersion()  returns 67005
T04DC 000:108.483 JLINK_GetFirmwareString(...)
T04DC 000:108.618 - 0.138ms
T04DC 000:108.644 JLINK_GetDLLVersion()  returns 67005
T04DC 000:108.649 JLINK_GetCompileDateTime()
T04DC 000:108.654 - 0.006ms
T04DC 000:108.662 JLINK_GetFirmwareString(...)
T04DC 000:108.666 - 0.006ms
T04DC 000:108.674 JLINK_GetHardwareVersion()
T04DC 000:108.678 - 0.006ms returns 0x16F30
T04DC 000:108.694 JLINK_TIF_Select(JLINKARM_TIF_SWD)
T04DC 000:110.266 - 1.584ms returns 0x00
T04DC 000:110.293 JLINK_SetSpeed(5000)
T04DC 000:110.587 - 0.297ms
T04DC 000:110.595 JLINK_GetId()
T04DC 000:111.111   InitTarget() start
T04DC 000:111.121    J-Link Script File: Executing InitTarget()
T04DC 000:111.133   InitTarget()
T04DC 000:115.552   _TargetHalt: CPU halted
T04DC 000:115.563   InitTarget() end
T04DC 000:116.650   Found SW-DP with ID 0x0BD11477
T04DC 000:120.252   DPIDR: 0x0BD11477
T04DC 000:120.280   Scanning AP map to find all available APs
T04DC 000:121.238   AP[1]: Stopped AP scan as end of AP map has been reached
T04DC 000:121.255   AP[0]: AHB-AP (IDR: 0x04770041)
T04DC 000:121.267   Iterating through AP map to find AHB-AP to use
T04DC 000:122.589   AP[0]: Core found
T04DC 000:122.602   AP[0]: AHB-AP ROM base: 0xE00FD000
T04DC 000:123.286   CPUID register: 0x411FC271. Implementer code: 0x41 (ARM)
T04DC 000:123.299   Found Cortex-M7 r1p1, Little endian.
T04DC 000:225.626    -- Max. mem block: 0x00010E60
T04DC 000:226.901   CPU_ReadMem(4 bytes @ 0xE000EDF0)
T04DC 000:227.651   CPU_ReadMem(4 bytes @ 0xE0002000)
T04DC 000:228.412   FPUnit: 8 code (BP) slots and 0 literal slots
T04DC 000:228.450   CPU_ReadMem(4 bytes @ 0xE000EDFC)
T04DC 000:229.126   CPU_WriteMem(4 bytes @ 0xE000EDFC)
T04DC 000:229.962   CPU_ReadMem(4 bytes @ 0xE0001000)
T04DC 000:230.738   CPU_WriteMem(4 bytes @ 0xE0001000)
T04DC 000:231.670   CPU_ReadMem(4 bytes @ 0xE000ED88)
T04DC 000:232.502   CPU_WriteMem(4 bytes @ 0xE000ED88)
T04DC 000:233.238   CPU_ReadMem(4 bytes @ 0xE000ED88)
T04DC 000:233.971   CPU_WriteMem(4 bytes @ 0xE000ED88)
T04DC 000:234.641   CoreSight components:
T04DC 000:234.688   ROMTbl[0] @ E00FD000
T04DC 000:234.715   CPU_ReadMem(64 bytes @ 0xE00FD000)
T04DC 000:235.846   CPU_ReadMem(32 bytes @ 0xE00FEFE0)
T04DC 000:236.710   ROMTbl[0][0]: E00FE000, CID: B105100D, PID: 000BB4C8 ROM Table
T04DC 000:236.742   ROMTbl[1] @ E00FE000
T04DC 000:236.763   CPU_ReadMem(64 bytes @ 0xE00FE000)
T04DC 000:237.753   CPU_ReadMem(32 bytes @ 0xE00FFFE0)
T04DC 000:238.590   ROMTbl[1][0]: E00FF000, CID: B105100D, PID: 000BB4C7 ROM Table
T04DC 000:238.620   ROMTbl[2] @ E00FF000
T04DC 000:238.643   CPU_ReadMem(64 bytes @ 0xE00FF000)
T04DC 000:239.680   CPU_ReadMem(32 bytes @ 0xE000EFE0)
T04DC 000:240.590   ROMTbl[2][0]: E000E000, CID: B105E00D, PID: 000BB00C SCS-M7
T04DC 000:240.622   CPU_ReadMem(32 bytes @ 0xE0001FE0)
T04DC 000:241.414   ROMTbl[2][1]: E0001000, CID: B105E00D, PID: 000BB002 DWT
T04DC 000:241.444   CPU_ReadMem(32 bytes @ 0xE0002FE0)
T04DC 000:242.243   ROMTbl[2][2]: E0002000, CID: B105E00D, PID: 000BB00E FPB-M7
T04DC 000:242.273   CPU_ReadMem(32 bytes @ 0xE0000FE0)
T04DC 000:243.085   ROMTbl[2][3]: E0000000, CID: B105E00D, PID: 000BB001 ITM
T04DC 000:243.127   CPU_ReadMem(32 bytes @ 0xE0041FE0)
T04DC 000:243.995   ROMTbl[1][1]: E0041000, CID: B105900D, PID: 001BB975 ETM-M7
T04DC 000:244.032   CPU_ReadMem(32 bytes @ 0xE0042FE0)
T04DC 000:244.885   ROMTbl[1][2]: E0042000, CID: B105900D, PID: 004BB906 CTI
T04DC 000:244.967   CPU_ReadMem(32 bytes @ 0xE0040FE0)
T04DC 000:245.870   ROMTbl[0][1]: E0040000, CID: B105900D, PID: 000BB9A9 TPIU-M7
T04DC 000:245.912   CPU_ReadMem(32 bytes @ 0xE0043FE0)
T04DC 000:246.732   ROMTbl[0][2]: E0043000, CID: B105F00D, PID: 001BB101 TSG
T04DC 000:246.780   CPU_ReadMem(4 bytes @ 0xE000ED78)
T04DC 000:247.464   Cache: Separate I- and D-cache.
T04DC 000:247.484   CPU_WriteMem(4 bytes @ 0xE000ED84)
T04DC 000:248.111   CPU_ReadMem(4 bytes @ 0xE000ED80)
T04DC 000:248.815   I-Cache L1: 32 KB, 512 Sets, 32 Bytes/Line, 2-Way
T04DC 000:248.860   CPU_WriteMem(4 bytes @ 0xE000ED84)
T04DC 000:249.509   CPU_ReadMem(4 bytes @ 0xE000ED80)
T04DC 000:250.177   D-Cache L1: 32 KB, 256 Sets, 32 Bytes/Line, 4-Way
T04DC 000:250.773 - 140.186ms   returns 0x0BD11477
T04DC 000:250.807 JLINK_GetDLLVersion()  returns 67005
T04DC 000:250.894 JLINK_CORE_GetFound()
T04DC 000:250.951 - 0.065ms returns 0xE0100FF
T04DC 000:250.971 JLINK_GetDebugInfo(0x100 = JLINKARM_ROM_TABLE_ADDR_INDEX)
T04DC 000:250.989   Value=0xE00FD000
T04DC 000:251.008 - 0.043ms returns 0x00
T04DC 000:251.039 JLINK_GetDebugInfo(0x100 = JLINKARM_ROM_TABLE_ADDR_INDEX)
T04DC 000:251.052   Value=0xE00FD000
T04DC 000:251.070 - 0.037ms returns 0x00
T04DC 000:251.084 JLINK_GetDebugInfo(0x101 = JLINKARM_DEBUG_INFO_ETM_ADDR_INDEX)
T04DC 000:251.097   Value=0xE0041000
T04DC 000:251.115 - 0.036ms returns 0x00
T04DC 000:251.138   JLINK_ReadMemEx(0xE0041FD0, 0x0020 Bytes, ..., Flags = 0x02000004)
T04DC 000:251.184   CPU_ReadMem(32 bytes @ 0xE0041FD0)
T04DC 000:251.996   Data:  04 00 00 00 00 00 00 00 00 00 00 00 00 00 00 00 ...
T04DC 000:252.017 - 0.890ms returns 0x20
T04DC 000:252.036 JLINK_GetDebugInfo(0x102 = JLINKARM_DEBUG_INFO_MTB_ADDR_INDEX)
T04DC 000:252.050   Value=0x00000000
T04DC 000:252.069 - 0.039ms returns 0x00
T04DC 000:252.085 JLINK_GetDebugInfo(0x103 = JLINKARM_DEBUG_INFO_TPIU_ADDR_INDEX)
T04DC 000:252.099   Value=0xE0040000
T04DC 000:252.118 - 0.039ms returns 0x00
T04DC 000:252.134 JLINK_GetDebugInfo(0x104 = JLINKARM_DEBUG_INFO_ITM_ADDR_INDEX)
T04DC 000:252.147   Value=0xE0000000
T04DC 000:252.166 - 0.039ms returns 0x00
T04DC 000:252.182 JLINK_GetDebugInfo(0x105 = JLINKARM_DEBUG_INFO_DWT_ADDR_INDEX)
T04DC 000:252.195   Value=0xE0001000
T04DC 000:252.214 - 0.039ms returns 0x00
T04DC 000:252.229 JLINK_GetDebugInfo(0x106 = JLINKARM_DEBUG_INFO_FPB_ADDR_INDEX)
T04DC 000:252.243   Value=0xE0002000
T04DC 000:252.262 - 0.039ms returns 0x00
T04DC 000:252.277 JLINK_GetDebugInfo(0x107 = JLINKARM_DEBUG_INFO_NVIC_ADDR_INDEX)
T04DC 000:252.291   Value=0xE000E000
T04DC 000:252.310 - 0.039ms returns 0x00
T04DC 000:252.326 JLINK_GetDebugInfo(0x10C = JLINKARM_DEBUG_INFO_DBG_ADDR_INDEX)
T04DC 000:252.339   Value=0xE000EDF0
T04DC 000:252.363 - 0.047ms returns 0x00
T04DC 000:252.383 JLINK_GetDebugInfo(0x01 = Unknown)
T04DC 000:252.397   Value=0x00000001
T04DC 000:252.416 - 0.040ms returns 0x00
T04DC 000:252.435 JLINK_ReadMemU32(0xE000ED00, 0x0001 Items, ...)
T04DC 000:252.456   CPU_ReadMem(4 bytes @ 0xE000ED00)
T04DC 000:253.029   Data:  71 C2 1F 41
T04DC 000:253.055    - CPUID
T04DC 000:253.075 - 0.646ms returns 1
T04DC 000:253.093 JLINK_GetDebugInfo(0x10F = JLINKARM_DEBUG_INFO_HAS_CORTEX_M_SECURITY_EXT_INDEX)
T04DC 000:253.107   Value=0x00000000
T04DC 000:253.126 - 0.039ms returns 0x00
T04DC 000:253.146 JLINK_SetResetType(JLINKARM_CM3_RESET_TYPE_NORMAL)
T04DC 000:253.160 - 0.021ms returns JLINKARM_CM3_RESET_TYPE_NORMAL
T04DC 000:253.177 JLINK_Reset()
T04DC 000:253.210   CPU is running
T04DC 000:253.232   CPU_WriteMem(4 bytes @ 0xE000EDF0)
T04DC 000:253.860   CPU is running
T04DC 000:253.884   CPU_WriteMem(4 bytes @ 0xE000EDFC)
T04DC 000:254.525   Reset: Halt core after reset via DEMCR.VC_CORERESET.
T04DC 000:255.500   Reset: Reset device via AIRCR.SYSRESETREQ.
T04DC 000:255.526   CPU is running
T04DC 000:255.548   CPU_WriteMem(4 bytes @ 0xE000ED0C)
T04DC 000:392.456   CPU_ReadMem(4 bytes @ 0xE000EDF0)
T04DC 000:393.340   CPU_ReadMem(4 bytes @ 0xE000EDF0)
T04DC 000:394.162   CPU is running
T04DC 000:394.180   CPU_WriteMem(4 bytes @ 0xE000EDF0)
T04DC 000:394.840   CPU is running
T04DC 000:394.857   CPU_WriteMem(4 bytes @ 0xE000EDFC)
T04DC 000:401.532   CPU_ReadMem(4 bytes @ 0xE000EDF0)
T04DC 000:405.354   CPU_WriteMem(4 bytes @ 0xE0002000)
T04DC 000:406.028   CPU_ReadMem(4 bytes @ 0xE000EDFC)
T04DC 000:406.572   CPU_ReadMem(4 bytes @ 0xE0001000)
T04DC 000:407.130 - 153.959ms
T04DC 000:407.217 JLINK_ReadReg(R15 (PC))
T04DC 000:407.235 - 0.023ms returns 0x00201414
T04DC 000:407.247 JLINK_ReadReg(XPSR)
T04DC 000:407.256 - 0.014ms returns 0x01000000
T04DC 000:407.268 JLINK_Halt()
T04DC 000:407.277 - 0.013ms returns 0x00
T04DC 000:407.288 JLINK_ReadMemU32(0xE000EDF0, 0x0001 Items, ...)
T04DC 000:407.303   CPU_ReadMem(4 bytes @ 0xE000EDF0)
T04DC 000:407.849   Data:  03 00 03 00
T04DC 000:407.866    - DHCSR
T04DC 000:407.895 - 0.611ms returns 1
T04DC 000:407.907 JLINK_WriteU32(0xE000EDF0, 0xA05F0003)
T04DC 000:407.919    - DHCSR
T04DC 000:407.944   CPU_WriteMem(4 bytes @ 0xE000EDF0)
T04DC 000:408.563 - 0.662ms returns 0
T04DC 000:408.579 JLINK_WriteU32(0xE000EDFC, 0x01000000)
T04DC 000:408.589    - DEMCR
T04DC 000:408.611   CPU_WriteMem(4 bytes @ 0xE000EDFC)
T04DC 000:409.154 - 0.581ms returns 0
T04DC 000:409.240 JLINK_GetHWStatus(...)
T04DC 000:409.715 - 0.482ms returns 0x00
T04DC 000:409.751 JLINK_GetNumBPUnits(Type = 0xFFFFFF00)
T04DC 000:409.762 - 0.015ms returns 0x08
T04DC 000:409.773 JLINK_GetNumBPUnits(Type = 0xF0)
T04DC 000:409.782 - 0.014ms returns 0x2000
T04DC 000:409.793 JLINK_GetNumWPUnits()
T04DC 000:409.802 - 0.013ms returns 0x04
T04DC 000:409.826 JLINK_GetSpeed()
T04DC 000:409.836 - 0.014ms returns 0xFA0
T04DC 000:409.855 JLINK_ReadMemU32(0xE000E004, 0x0001 Items, ...)
T04DC 000:409.868   CPU_ReadMem(4 bytes @ 0xE000E004)
T04DC 000:410.445   Data:  04 00 00 00
T04DC 000:410.460 - 0.610ms returns 1
T04DC 000:410.474 JLINK_ReadMemU32(0xE000E004, 0x0001 Items, ...)
T04DC 000:410.486   CPU_ReadMem(4 bytes @ 0xE000E004)
T04DC 000:411.069   Data:  04 00 00 00
T04DC 000:411.085 - 0.616ms returns 1
T04DC 000:411.098 JLINK_WriteMemEx(0xE0001000, 0x001C Bytes, ..., Flags = 0x02000004)
T04DC 000:411.110   Data:  01 00 00 00 00 00 00 00 00 00 00 00 00 00 00 00 ...
T04DC 000:411.595   CPU_WriteMem(28 bytes @ 0xE0001000)
T04DC 000:412.373 - 1.282ms returns 0x1C
T04DC 000:412.409 JLINK_ReadReg(R15 (PC))
T04DC 000:412.423 - 0.019ms returns 0x00201414
T04DC 000:412.436 JLINK_ReadReg(XPSR)
T04DC 000:412.446 - 0.016ms returns 0x01000000
T04DC 000:417.709   JLINK_ReadMemEx(0xE0001004, 0x0004 Bytes, ..., Flags = 0x02000000)
T04DC 000:417.760   Data:  00 00 00 00
T04DC 000:417.778    - DWT_CYCCNT
T04DC 000:417.793 - 0.092ms returns 0x04
T04DC 000:515.677 JLINK_SetResetType(JLINKARM_CM3_RESET_TYPE_NORMAL)
T04DC 000:515.714 - 0.042ms returns JLINKARM_CM3_RESET_TYPE_NORMAL
T04DC 000:515.724 JLINK_Reset()
T04DC 000:515.745   CPU_WriteMem(4 bytes @ 0xE000EDF0)
T04DC 000:516.397   CPU_WriteMem(4 bytes @ 0xE000EDFC)
T04DC 000:517.027   Reset: Halt core after reset via DEMCR.VC_CORERESET.
T04DC 000:517.903   Reset: Reset device via AIRCR.SYSRESETREQ.
T04DC 000:517.915   CPU_WriteMem(4 bytes @ 0xE000ED0C)
T04DC 000:656.034   CPU_ReadMem(4 bytes @ 0xE000EDF0)
T04DC 000:657.025   CPU_ReadMem(4 bytes @ 0xE000EDF0)
T04DC 000:657.910   CPU_WriteMem(4 bytes @ 0xE000EDF0)
T04DC 000:658.746   CPU_WriteMem(4 bytes @ 0xE000EDFC)
T04DC 000:664.799   CPU_ReadMem(4 bytes @ 0xE000EDF0)
T04DC 000:669.923   CPU_WriteMem(4 bytes @ 0xE0002000)
T04DC 000:670.858   CPU_ReadMem(4 bytes @ 0xE000EDFC)
T04DC 000:671.636   CPU_ReadMem(4 bytes @ 0xE0001000)
T04DC 000:672.379 - 156.665ms
T04DC 000:672.705 JLINK_ReadReg(R15 (PC))
T04DC 000:672.737 - 0.039ms returns 0x00201414
T04DC 000:672.754 JLINK_ReadReg(XPSR)
T04DC 000:672.769 - 0.022ms returns 0x01000000
T04DC 000:672.964   JLINK_ReadMemEx(0x00201414, 0x003C Bytes, ..., Flags = 0x02000000)
T04DC 000:672.995   CPU_ReadMem(60 bytes @ 0x00201414)
T04DC 000:674.183   Data:  72 B6 0D 48 80 47 0D 48 0D 49 01 60 0D 48 80 47 ...
T04DC 000:674.202 - 1.246ms returns 0x3C
T04DC 000:674.220   JLINK_ReadMemEx(0x00201414, 0x0002 Bytes, ..., Flags = 0x02000000)
T04DC 000:674.243   CPU_ReadMem(2 bytes @ 0x00201414)
T04DC 000:674.986   Data:  72 B6
T04DC 000:675.007 - 0.794ms returns 0x02
T04DC 000:675.173   JLINK_ReadMemEx(0x00201416, 0x0002 Bytes, ..., Flags = 0x02000000)
T04DC 000:675.198   CPU_ReadMem(2 bytes @ 0x00201416)
T04DC 000:675.792   Data:  0D 48
T04DC 000:675.814 - 0.649ms returns 0x02
T04DC 000:676.230   JLINK_ReadMemEx(0x00201416, 0x0002 Bytes, ..., Flags = 0x02000000)
T04DC 000:676.262   CPU_ReadMem(2 bytes @ 0x00201416)
T04DC 000:676.972   Data:  0D 48
T04DC 000:677.004 - 0.782ms returns 0x02
T04DC 000:677.027   JLINK_ReadMemEx(0x00201418, 0x003C Bytes, ..., Flags = 0x02000000)
T04DC 000:677.055   CPU_ReadMem(60 bytes @ 0x00201418)
T04DC 000:678.068   Data:  80 47 0D 48 0D 49 01 60 0D 48 80 47 0D 48 01 68 ...
T04DC 000:678.095 - 1.077ms returns 0x3C
T04DC 000:678.119   JLINK_ReadMemEx(0x00201418, 0x0002 Bytes, ..., Flags = 0x02000000)
T04DC 000:678.149   CPU_ReadMem(2 bytes @ 0x00201418)
T04DC 000:678.848   Data:  80 47
T04DC 000:678.879 - 0.770ms returns 0x02
T04DC 000:678.946   JLINK_ReadMemEx(0x00201418, 0x003C Bytes, ..., Flags = 0x02000000)
T04DC 000:678.980   CPU_ReadMem(60 bytes @ 0x00201418)
T04DC 000:680.018   Data:  80 47 0D 48 0D 49 01 60 0D 48 80 47 0D 48 01 68 ...
T04DC 000:680.050 - 1.114ms returns 0x3C
T04DC 000:680.075   JLINK_ReadMemEx(0x00201418, 0x0002 Bytes, ..., Flags = 0x02000000)
T04DC 000:680.109   CPU_ReadMem(2 bytes @ 0x00201418)
T04DC 000:681.078   Data:  80 47
T04DC 000:681.117 - 1.053ms returns 0x02
T04DC 000:681.150   JLINK_ReadMemEx(0x0020141A, 0x0002 Bytes, ..., Flags = 0x02000000)
T04DC 000:681.187   CPU_ReadMem(2 bytes @ 0x0020141A)
T04DC 000:682.005   Data:  0D 48
T04DC 000:682.081 - 0.943ms returns 0x02
T04DC 000:682.236   JLINK_ReadMemEx(0x0020141A, 0x0002 Bytes, ..., Flags = 0x02000000)
T04DC 000:682.334   CPU_ReadMem(2 bytes @ 0x0020141A)
T04DC 000:683.060   Data:  0D 48
T04DC 000:683.102 - 0.880ms returns 0x02
T04DC 000:683.134   JLINK_ReadMemEx(0x0020141C, 0x003C Bytes, ..., Flags = 0x02000000)
T04DC 000:683.171   CPU_ReadMem(60 bytes @ 0x0020141C)
T04DC 000:684.186   Data:  0D 49 01 60 0D 48 80 47 0D 48 01 68 41 F0 10 01 ...
T04DC 000:684.212 - 1.087ms returns 0x3C
T04DC 000:684.233   JLINK_ReadMemEx(0x0020141C, 0x0002 Bytes, ..., Flags = 0x02000000)
T04DC 000:684.262   CPU_ReadMem(2 bytes @ 0x0020141C)
T04DC 000:684.915   Data:  0D 49
T04DC 000:684.941 - 0.716ms returns 0x02
T04DC 000:685.019   JLINK_ReadMemEx(0x0020141C, 0x003C Bytes, ..., Flags = 0x02000000)
T04DC 000:685.047   CPU_ReadMem(60 bytes @ 0x0020141C)
T04DC 000:686.017   Data:  0D 49 01 60 0D 48 80 47 0D 48 01 68 41 F0 10 01 ...
T04DC 000:686.162 - 1.153ms returns 0x3C
T04DC 000:686.186   JLINK_ReadMemEx(0x0020141C, 0x0002 Bytes, ..., Flags = 0x02000000)
T04DC 000:686.217   CPU_ReadMem(2 bytes @ 0x0020141C)
T04DC 000:686.882   Data:  0D 49
T04DC 000:686.914 - 0.738ms returns 0x02
T04DC 000:686.941   JLINK_ReadMemEx(0x0020141E, 0x0002 Bytes, ..., Flags = 0x02000000)
T04DC 000:686.975   CPU_ReadMem(2 bytes @ 0x0020141E)
T04DC 000:687.641   Data:  01 60
T04DC 000:687.685 - 0.755ms returns 0x02
T04DC 000:687.821   JLINK_ReadMemEx(0x0020141E, 0x0002 Bytes, ..., Flags = 0x02000000)
T04DC 000:687.868   CPU_ReadMem(2 bytes @ 0x0020141E)
T04DC 000:688.597   Data:  01 60
T04DC 000:688.633 - 0.825ms returns 0x02
T04DC 000:688.666   JLINK_ReadMemEx(0x00201420, 0x003C Bytes, ..., Flags = 0x02000000)
T04DC 000:688.706   CPU_ReadMem(60 bytes @ 0x00201420)
T04DC 000:689.796   Data:  0D 48 80 47 0D 48 01 68 41 F0 10 01 01 60 62 B6 ...
T04DC 000:689.831 - 1.178ms returns 0x3C
T04DC 000:689.861   JLINK_ReadMemEx(0x00201420, 0x0002 Bytes, ..., Flags = 0x02000000)
T04DC 000:689.901   CPU_ReadMem(2 bytes @ 0x00201420)
T04DC 000:690.599   Data:  0D 48
T04DC 000:690.633 - 0.784ms returns 0x02
T04DC 000:690.731   JLINK_ReadMemEx(0x00201420, 0x003C Bytes, ..., Flags = 0x02000000)
T04DC 000:690.772   CPU_ReadMem(60 bytes @ 0x00201420)
T04DC 000:691.776   Data:  0D 48 80 47 0D 48 01 68 41 F0 10 01 01 60 62 B6 ...
T04DC 000:691.810 - 1.090ms returns 0x3C
T04DC 000:691.840   JLINK_ReadMemEx(0x00201420, 0x0002 Bytes, ..., Flags = 0x02000000)
T04DC 000:691.879   CPU_ReadMem(2 bytes @ 0x00201420)
T04DC 000:692.791   Data:  0D 48
T04DC 000:692.871 - 1.044ms returns 0x02
T04DC 000:692.918   JLINK_ReadMemEx(0x00201422, 0x0002 Bytes, ..., Flags = 0x02000000)
T04DC 000:692.976   CPU_ReadMem(2 bytes @ 0x00201422)
T04DC 000:693.804   Data:  80 47
T04DC 000:693.848 - 0.944ms returns 0x02
T04DC 002:664.626   JLINK_ReadMemEx(0x60008812, 0x0002 Bytes, ..., Flags = 0x02000000)
T04DC 002:664.654   CPU_ReadMem(64 bytes @ 0x60008800)
T04DC 002:665.562    -- Updating C cache (64 bytes @ 0x60008800)
T04DC 002:665.580    -- Read from C cache (2 bytes @ 0x60008812)
T04DC 002:665.587   Data:  EF E3
T04DC 002:665.594 - 0.971ms returns 0x02
T04DC 002:665.659   JLINK_ReadMemEx(0x60008814, 0x003C Bytes, ..., Flags = 0x02000000)
T04DC 002:665.669   CPU_ReadMem(64 bytes @ 0x60008840)
T04DC 002:666.603    -- Updating C cache (64 bytes @ 0x60008840)
T04DC 002:666.610    -- Read from C cache (60 bytes @ 0x60008814)
T04DC 002:666.617   Data:  D7 DF BF DF FB DF EF E3 D7 DF BF DF FB DF EF E3 ...
T04DC 002:666.624 - 0.967ms returns 0x3C
T04DC 002:666.630   JLINK_ReadMemEx(0x60008814, 0x0002 Bytes, ..., Flags = 0x02000000)
T04DC 002:666.636    -- Read from C cache (2 bytes @ 0x60008814)
T04DC 002:666.643   Data:  D7 DF
T04DC 002:666.649 - 0.021ms returns 0x02
T04DC 002:667.018   JLINK_ReadMemEx(0x60008814, 0x003C Bytes, ..., Flags = 0x02000000)
T04DC 002:667.027    -- Read from C cache (60 bytes @ 0x60008814)
T04DC 002:667.034   Data:  D7 DF BF DF FB DF EF E3 D7 DF BF DF FB DF EF E3 ...
T04DC 002:667.040 - 0.025ms returns 0x3C
T04DC 002:667.046   JLINK_ReadMemEx(0x60008814, 0x0002 Bytes, ..., Flags = 0x02000000)
T04DC 002:667.052    -- Read from C cache (2 bytes @ 0x60008814)
T04DC 002:667.058   Data:  D7 DF
T04DC 002:667.065 - 0.021ms returns 0x02
T04DC 002:667.070   JLINK_ReadMemEx(0x60008816, 0x0002 Bytes, ..., Flags = 0x02000000)
T04DC 002:667.076    -- Read from C cache (2 bytes @ 0x60008816)
T04DC 002:667.082   Data:  BF DF
T04DC 002:667.089 - 0.021ms returns 0x02
T04DC 002:667.096   JLINK_ReadMemEx(0x60008816, 0x0002 Bytes, ..., Flags = 0x02000000)
T04DC 002:667.103    -- Read from C cache (2 bytes @ 0x60008816)
T04DC 002:667.109   Data:  BF DF
T04DC 002:667.115 - 0.020ms returns 0x02
T04DC 002:667.120   JLINK_ReadMemEx(0x60008818, 0x003C Bytes, ..., Flags = 0x02000000)
T04DC 002:667.126    -- Read from C cache (60 bytes @ 0x60008818)
T04DC 002:667.133   Data:  FB DF EF E3 D7 DF BF DF FB DF EF E3 D7 DF BF DF ...
T04DC 002:667.142 - 0.024ms returns 0x3C
T04DC 002:667.147   JLINK_ReadMemEx(0x60008818, 0x0002 Bytes, ..., Flags = 0x02000000)
T04DC 002:667.154    -- Read from C cache (2 bytes @ 0x60008818)
T04DC 002:667.160   Data:  FB DF
T04DC 002:667.166 - 0.020ms returns 0x02
T04DC 002:667.172   JLINK_ReadMemEx(0x60008818, 0x003C Bytes, ..., Flags = 0x02000000)
T04DC 002:667.179    -- Read from C cache (60 bytes @ 0x60008818)
T04DC 002:667.185   Data:  FB DF EF E3 D7 DF BF DF FB DF EF E3 D7 DF BF DF ...
T04DC 002:667.191 - 0.021ms returns 0x3C
T04DC 002:667.197   JLINK_ReadMemEx(0x60008818, 0x0002 Bytes, ..., Flags = 0x02000000)
T04DC 002:667.203    -- Read from C cache (2 bytes @ 0x60008818)
T04DC 002:667.209   Data:  FB DF
T04DC 002:667.215 - 0.020ms returns 0x02
T04DC 002:667.220   JLINK_ReadMemEx(0x6000881A, 0x0002 Bytes, ..., Flags = 0x02000000)
T04DC 002:667.226    -- Read from C cache (2 bytes @ 0x6000881A)
T04DC 002:667.232   Data:  EF E3
T04DC 002:667.239 - 0.020ms returns 0x02
T04DC 002:667.245   JLINK_ReadMemEx(0x6000881A, 0x0002 Bytes, ..., Flags = 0x02000000)
T04DC 002:667.251    -- Read from C cache (2 bytes @ 0x6000881A)
T04DC 002:667.257   Data:  EF E3
T04DC 002:667.263 - 0.020ms returns 0x02
T04DC 002:667.269   JLINK_ReadMemEx(0x6000881C, 0x003C Bytes, ..., Flags = 0x02000000)
T04DC 002:667.275    -- Read from C cache (60 bytes @ 0x6000881C)
T04DC 002:667.281   Data:  D7 DF BF DF FB DF EF E3 D7 DF BF DF FB DF EF E3 ...
T04DC 002:667.288 - 0.021ms returns 0x3C
T04DC 002:667.293   JLINK_ReadMemEx(0x6000881C, 0x0002 Bytes, ..., Flags = 0x02000000)
T04DC 002:667.299    -- Read from C cache (2 bytes @ 0x6000881C)
T04DC 002:667.305   Data:  D7 DF
T04DC 002:667.311 - 0.020ms returns 0x02
T04DC 002:667.330   JLINK_ReadMemEx(0x6000881C, 0x003C Bytes, ..., Flags = 0x02000000)
T04DC 002:667.336    -- Read from C cache (60 bytes @ 0x6000881C)
T04DC 002:667.343   Data:  D7 DF BF DF FB DF EF E3 D7 DF BF DF FB DF EF E3 ...
T04DC 002:667.349 - 0.021ms returns 0x3C
T04DC 002:667.354   JLINK_ReadMemEx(0x6000881C, 0x0002 Bytes, ..., Flags = 0x02000000)
T04DC 002:667.361    -- Read from C cache (2 bytes @ 0x6000881C)
T04DC 002:667.367   Data:  D7 DF
T04DC 002:667.373 - 0.021ms returns 0x02
T04DC 002:667.378   JLINK_ReadMemEx(0x6000881E, 0x0002 Bytes, ..., Flags = 0x02000000)
T04DC 002:667.384    -- Read from C cache (2 bytes @ 0x6000881E)
T04DC 002:667.390   Data:  BF DF
T04DC 002:667.396 - 0.020ms returns 0x02
T04DC 003:018.404 JLINK_ReadReg(R0)
T04DC 003:019.035 - 0.637ms returns 0x00000000
T04DC 003:019.046 JLINK_ReadReg(R1)
T04DC 003:019.051 - 0.007ms returns 0x00000000
T04DC 003:019.056 JLINK_ReadReg(R2)
T04DC 003:019.061 - 0.006ms returns 0x00000000
T04DC 003:019.066 JLINK_ReadReg(R3)
T04DC 003:019.070 - 0.006ms returns 0x00000000
T04DC 003:019.075 JLINK_ReadReg(R4)
T04DC 003:019.079 - 0.006ms returns 0x00000000
T04DC 003:019.084 JLINK_ReadReg(R5)
T04DC 003:019.089 - 0.006ms returns 0x00000000
T04DC 003:019.094 JLINK_ReadReg(R6)
T04DC 003:019.098 - 0.006ms returns 0x00000000
T04DC 003:019.103 JLINK_ReadReg(R7)
T04DC 003:019.107 - 0.006ms returns 0x00000000
T04DC 003:019.113 JLINK_ReadReg(R8)
T04DC 003:019.117 - 0.006ms returns 0x00000000
T04DC 003:019.122 JLINK_ReadReg(R9)
T04DC 003:019.126 - 0.006ms returns 0x00000000
T04DC 003:019.131 JLINK_ReadReg(R10)
T04DC 003:019.136 - 0.006ms returns 0x00000000
T04DC 003:019.141 JLINK_ReadReg(R11)
T04DC 003:019.145 - 0.006ms returns 0x00000000
T04DC 003:019.150 JLINK_ReadReg(R12)
T04DC 003:019.154 - 0.006ms returns 0x00000000
T04DC 003:019.159 JLINK_ReadReg(R13 (SP))
T04DC 003:019.164 - 0.007ms returns 0x20201000
T04DC 003:019.169 JLINK_ReadReg(R14)
T04DC 003:019.174 - 0.006ms returns 0xFFFFFFFF
T04DC 003:019.179 JLINK_ReadReg(R15 (PC))
T04DC 003:019.183 - 0.006ms returns 0x00201414
T04DC 003:019.188 JLINK_ReadReg(XPSR)
T04DC 003:019.193 - 0.006ms returns 0x01000000
T04DC 003:019.198 JLINK_ReadReg(MSP)
T04DC 003:019.202 - 0.006ms returns 0x20201000
T04DC 003:019.207 JLINK_ReadReg(PSP)
T04DC 003:019.212 - 0.009ms returns 0x00000000
T04DC 003:019.221 JLINK_ReadReg(CFBP)
T04DC 003:019.225 - 0.006ms returns 0x00000000
T04DC 003:019.230 JLINK_ReadReg(FPSCR)
T04DC 003:023.615 - 4.393ms returns 0x00000000
T04DC 003:023.633 JLINK_ReadReg(FPS0)
T04DC 003:023.640 - 0.009ms returns 0x00000000
T04DC 003:023.645 JLINK_ReadReg(FPS1)
T04DC 003:023.650 - 0.006ms returns 0x00000000
T04DC 003:023.655 JLINK_ReadReg(FPS2)
T04DC 003:023.659 - 0.006ms returns 0x00000000
T04DC 003:023.664 JLINK_ReadReg(FPS3)
T04DC 003:023.669 - 0.006ms returns 0x00000000
T04DC 003:023.702 JLINK_ReadReg(FPS4)
T04DC 003:023.708 - 0.008ms returns 0x00000000
T04DC 003:023.713 JLINK_ReadReg(FPS5)
T04DC 003:023.717 - 0.006ms returns 0x00000000
T04DC 003:023.722 JLINK_ReadReg(FPS6)
T04DC 003:023.727 - 0.006ms returns 0x00000000
T04DC 003:023.732 JLINK_ReadReg(FPS7)
T04DC 003:023.736 - 0.006ms returns 0x00000000
T04DC 003:023.741 JLINK_ReadReg(FPS8)
T04DC 003:023.745 - 0.006ms returns 0x00000000
T04DC 003:023.750 JLINK_ReadReg(FPS9)
T04DC 003:023.755 - 0.006ms returns 0x00000000
T04DC 003:023.760 JLINK_ReadReg(FPS10)
T04DC 003:023.764 - 0.006ms returns 0x00000000
T04DC 003:023.769 JLINK_ReadReg(FPS11)
T04DC 003:023.773 - 0.006ms returns 0x00000000
T04DC 003:023.778 JLINK_ReadReg(FPS12)
T04DC 003:023.783 - 0.006ms returns 0x00000000
T04DC 003:023.788 JLINK_ReadReg(FPS13)
T04DC 003:023.792 - 0.006ms returns 0x00000000
T04DC 003:023.797 JLINK_ReadReg(FPS14)
T04DC 003:023.801 - 0.006ms returns 0x00000000
T04DC 003:023.806 JLINK_ReadReg(FPS15)
T04DC 003:023.811 - 0.006ms returns 0xFFFFFFFF
T04DC 003:023.815 JLINK_ReadReg(FPS16)
T04DC 003:023.820 - 0.006ms returns 0x00000000
T04DC 003:023.825 JLINK_ReadReg(FPS17)
T04DC 003:023.829 - 0.006ms returns 0x00000000
T04DC 003:023.834 JLINK_ReadReg(FPS18)
T04DC 003:023.838 - 0.006ms returns 0x00000000
T04DC 003:023.843 JLINK_ReadReg(FPS19)
T04DC 003:023.848 - 0.006ms returns 0x00000000
T04DC 003:023.853 JLINK_ReadReg(FPS20)
T04DC 003:023.857 - 0.006ms returns 0x00000000
T04DC 003:023.862 JLINK_ReadReg(FPS21)
T04DC 003:023.866 - 0.006ms returns 0x00000000
T04DC 003:023.871 JLINK_ReadReg(FPS22)
T04DC 003:023.876 - 0.006ms returns 0x00000000
T04DC 003:023.881 JLINK_ReadReg(FPS23)
T04DC 003:023.885 - 0.006ms returns 0x00000000
T04DC 003:023.890 JLINK_ReadReg(FPS24)
T04DC 003:023.894 - 0.006ms returns 0x00000000
T04DC 003:023.899 JLINK_ReadReg(FPS25)
T04DC 003:023.904 - 0.006ms returns 0x00000000
T04DC 003:023.909 JLINK_ReadReg(FPS26)
T04DC 003:023.913 - 0.006ms returns 0x00000000
T04DC 003:023.918 JLINK_ReadReg(FPS27)
T04DC 003:023.922 - 0.006ms returns 0x00000000
T04DC 003:023.927 JLINK_ReadReg(FPS28)
T04DC 003:023.931 - 0.006ms returns 0x00000000
T04DC 003:023.936 JLINK_ReadReg(FPS29)
T04DC 003:023.941 - 0.006ms returns 0x00000000
T04DC 003:023.946 JLINK_ReadReg(FPS30)
T04DC 003:023.950 - 0.006ms returns 0x00000000
T04DC 003:023.955 JLINK_ReadReg(FPS31)
T04DC 003:023.959 - 0.006ms returns 0xFFFFFFFF
T04DC 003:025.417   JLINK_ReadMemEx(0x400AC044, 0x0004 Bytes, ..., Flags = 0x02000000)
T04DC 003:025.441   CPU_ReadMem(4 bytes @ 0x400AC044)
T04DC 003:025.970   Data:  00 00 00 00
T04DC 003:025.978 - 0.564ms returns 0x04
T04DC 003:026.044 JLINK_WriteMemEx(0x400AC044, 0x0004 Bytes, ..., Flags = 0x02000000)
T04DC 003:026.049   Data:  55 FA AF 55
T04DC 003:026.062   CPU_WriteMem(4 bytes @ 0x400AC044)
T04DC 003:026.639 - 0.598ms returns 0x04
T04DC 003:026.648   JLINK_ReadMemEx(0x400AC040, 0x0004 Bytes, ..., Flags = 0x02000000)
T04DC 003:026.656   CPU_ReadMem(4 bytes @ 0x400AC040)
T04DC 003:027.219   Data:  03 00 20 00
T04DC 003:027.248 - 0.605ms returns 0x04
T04DC 003:027.270 JLINK_WriteMemEx(0x400AC040, 0x0004 Bytes, ..., Flags = 0x02000000)
T04DC 003:027.280   Data:  07 00 20 00
T04DC 003:027.304   CPU_WriteMem(4 bytes @ 0x400AC040)
T04DC 003:027.827 - 0.562ms returns 0x04
T04DC 003:106.030   JLINK_ReadMemEx(0x401F4490, 0x0004 Bytes, ..., Flags = 0x02000000)
T04DC 003:106.085   CPU_ReadMem(4 bytes @ 0x401F4490)
T04DC 003:106.711   Data:  00 94 00 00
T04DC 003:106.768 - 0.746ms returns 0x04
T04DC 003:106.876   JLINK_ReadMemEx(0x40080004, 0x0004 Bytes, ..., Flags = 0x02000000)
T04DC 003:106.903   CPU_ReadMem(4 bytes @ 0x40080004)
T04DC 003:107.474   Data:  9C A2 1B 11
T04DC 003:107.486 - 0.614ms returns 0x04
T04DC 003:107.598 JLINK_WriteMemEx(0x40080004, 0x0004 Bytes, ..., Flags = 0x02000000)
T04DC 003:107.607   Data:  9C A2 1B 12
T04DC 003:107.627   CPU_WriteMem(4 bytes @ 0x40080004)
T04DC 003:108.151 - 0.563ms returns 0x04
T04DC 003:108.174   JLINK_ReadMemEx(0x401F4480, 0x0004 Bytes, ..., Flags = 0x02000000)
T04DC 003:108.192   CPU_ReadMem(4 bytes @ 0x401F4480)
T04DC 003:110.028   Data:  80 00 00 00
T04DC 003:110.048 - 1.878ms returns 0x04
T04DC 003:132.735   JLINK_ReadMemEx(0x60002000, 0x0004 Bytes, ..., Flags = 0x02000000)
T04DC 003:132.781   CPU_ReadMem(64 bytes @ 0x60002000)
T04DC 003:133.757    -- Updating C cache (64 bytes @ 0x60002000)
T04DC 003:133.765    -- Read from C cache (4 bytes @ 0x60002000)
T04DC 003:133.773   Data:  FB DF EF E3
T04DC 003:133.779 - 1.048ms returns 0x04
T04DC 003:133.793 JLINK_WriteReg(R13 (SP), 0xE3EFDFFB)
T04DC 003:133.802 - 0.012ms returns 0x00
T04DC 003:133.809 JLINK_ReadReg(R0)
T04DC 003:133.814 - 0.007ms returns 0x00000000
T04DC 003:133.819 JLINK_ReadReg(R1)
T04DC 003:133.824 - 0.006ms returns 0x00000000
T04DC 003:133.829 JLINK_ReadReg(R2)
T04DC 003:133.833 - 0.006ms returns 0x00000000
T04DC 003:133.838 JLINK_ReadReg(R3)
T04DC 003:133.843 - 0.006ms returns 0x00000000
T04DC 003:133.848 JLINK_ReadReg(R4)
T04DC 003:133.852 - 0.006ms returns 0x00000000
T04DC 003:133.857 JLINK_ReadReg(R5)
T04DC 003:133.861 - 0.006ms returns 0x00000000
T04DC 003:133.867 JLINK_ReadReg(R6)
T04DC 003:133.871 - 0.006ms returns 0x00000000
T04DC 003:133.876 JLINK_ReadReg(R7)
T04DC 003:133.880 - 0.006ms returns 0x00000000
T04DC 003:133.885 JLINK_ReadReg(R8)
T04DC 003:133.890 - 0.006ms returns 0x00000000
T04DC 003:133.895 JLINK_ReadReg(R9)
T04DC 003:133.899 - 0.006ms returns 0x00000000
T04DC 003:133.904 JLINK_ReadReg(R10)
T04DC 003:133.908 - 0.006ms returns 0x00000000
T04DC 003:133.913 JLINK_ReadReg(R11)
T04DC 003:133.918 - 0.006ms returns 0x00000000
T04DC 003:133.923 JLINK_ReadReg(R12)
T04DC 003:133.927 - 0.006ms returns 0x00000000
T04DC 003:133.932 JLINK_ReadReg(R13 (SP))
T04DC 003:133.937 - 0.006ms returns 0xE3EFDFFB
T04DC 003:133.942 JLINK_ReadReg(R14)
T04DC 003:133.946 - 0.006ms returns 0xFFFFFFFF
T04DC 003:133.951 JLINK_ReadReg(R15 (PC))
T04DC 003:133.955 - 0.006ms returns 0x00201414
T04DC 003:133.960 JLINK_ReadReg(XPSR)
T04DC 003:133.965 - 0.006ms returns 0x01000000
T04DC 003:133.970 JLINK_ReadReg(MSP)
T04DC 003:133.974 - 0.006ms returns 0xE3EFDFFB
T04DC 003:133.979 JLINK_ReadReg(PSP)
T04DC 003:133.984 - 0.006ms returns 0x00000000
T04DC 003:133.989 JLINK_ReadReg(CFBP)
T04DC 003:133.993 - 0.006ms returns 0x00000000
T04DC 003:133.998 JLINK_ReadReg(FPSCR)
T04DC 003:134.003 - 0.006ms returns 0x00000000
T04DC 003:134.008 JLINK_ReadReg(FPS0)
T04DC 003:134.012 - 0.006ms returns 0x00000000
T04DC 003:134.017 JLINK_ReadReg(FPS1)
T04DC 003:134.022 - 0.006ms returns 0x00000000
T04DC 003:134.027 JLINK_ReadReg(FPS2)
T04DC 003:134.031 - 0.006ms returns 0x00000000
T04DC 003:134.036 JLINK_ReadReg(FPS3)
T04DC 003:134.040 - 0.006ms returns 0x00000000
T04DC 003:134.061 JLINK_ReadReg(FPS4)
T04DC 003:134.066 - 0.007ms returns 0x00000000
T04DC 003:134.071 JLINK_ReadReg(FPS5)
T04DC 003:134.076 - 0.006ms returns 0x00000000
T04DC 003:134.081 JLINK_ReadReg(FPS6)
T04DC 003:134.085 - 0.006ms returns 0x00000000
T04DC 003:134.090 JLINK_ReadReg(FPS7)
T04DC 003:134.095 - 0.006ms returns 0x00000000
T04DC 003:134.100 JLINK_ReadReg(FPS8)
T04DC 003:134.104 - 0.006ms returns 0x00000000
T04DC 003:134.110 JLINK_ReadReg(FPS9)
T04DC 003:134.114 - 0.006ms returns 0x00000000
T04DC 003:134.119 JLINK_ReadReg(FPS10)
T04DC 003:134.123 - 0.006ms returns 0x00000000
T04DC 003:134.128 JLINK_ReadReg(FPS11)
T04DC 003:134.133 - 0.006ms returns 0x00000000
T04DC 003:134.138 JLINK_ReadReg(FPS12)
T04DC 003:134.142 - 0.006ms returns 0x00000000
T04DC 003:134.188 JLINK_ReadReg(FPS13)
T04DC 003:134.195 - 0.009ms returns 0x00000000
T04DC 003:134.200 JLINK_ReadReg(FPS14)
T04DC 003:134.204 - 0.006ms returns 0x00000000
T04DC 003:134.209 JLINK_ReadReg(FPS15)
T04DC 003:134.213 - 0.006ms returns 0xFFFFFFFF
T04DC 003:134.218 JLINK_ReadReg(FPS16)
T04DC 003:134.223 - 0.006ms returns 0x00000000
T04DC 003:134.228 JLINK_ReadReg(FPS17)
T04DC 003:134.232 - 0.006ms returns 0x00000000
T04DC 003:134.237 JLINK_ReadReg(FPS18)
T04DC 003:134.241 - 0.006ms returns 0x00000000
T04DC 003:134.246 JLINK_ReadReg(FPS19)
T04DC 003:134.251 - 0.006ms returns 0x00000000
T04DC 003:134.256 JLINK_ReadReg(FPS20)
T04DC 003:134.260 - 0.006ms returns 0x00000000
T04DC 003:134.265 JLINK_ReadReg(FPS21)
T04DC 003:134.269 - 0.006ms returns 0x00000000
T04DC 003:134.274 JLINK_ReadReg(FPS22)
T04DC 003:134.279 - 0.006ms returns 0x00000000
T04DC 003:134.284 JLINK_ReadReg(FPS23)
T04DC 003:134.288 - 0.006ms returns 0x00000000
T04DC 003:134.293 JLINK_ReadReg(FPS24)
T04DC 003:134.297 - 0.006ms returns 0x00000000
T04DC 003:134.302 JLINK_ReadReg(FPS25)
T04DC 003:134.306 - 0.006ms returns 0x00000000
T04DC 003:134.311 JLINK_ReadReg(FPS26)
T04DC 003:134.316 - 0.006ms returns 0x00000000
T04DC 003:134.321 JLINK_ReadReg(FPS27)
T04DC 003:134.325 - 0.006ms returns 0x00000000
T04DC 003:134.330 JLINK_ReadReg(FPS28)
T04DC 003:134.334 - 0.006ms returns 0x00000000
T04DC 003:134.339 JLINK_ReadReg(FPS29)
T04DC 003:134.344 - 0.006ms returns 0x00000000
T04DC 003:134.349 JLINK_ReadReg(FPS30)
T04DC 003:134.353 - 0.006ms returns 0x00000000
T04DC 003:134.358 JLINK_ReadReg(FPS31)
T04DC 003:134.362 - 0.006ms returns 0xFFFFFFFF
T04DC 003:134.369   JLINK_ReadMemEx(0x60002004, 0x0004 Bytes, ..., Flags = 0x02000000)
T04DC 003:134.376    -- Read from C cache (4 bytes @ 0x60002004)
T04DC 003:134.382   Data:  D7 DF BF DF
T04DC 003:134.389 - 0.022ms returns 0x04
T04DC 003:134.395 JLINK_WriteReg(R15 (PC), 0xDFBFDFD6)
T04DC 003:134.400 - 0.007ms returns 0x00
T04DC 003:134.406 JLINK_ReadReg(R0)
T04DC 003:134.410 - 0.006ms returns 0x00000000
T04DC 003:134.415 JLINK_ReadReg(R1)
T04DC 003:134.420 - 0.006ms returns 0x00000000
T04DC 003:134.425 JLINK_ReadReg(R2)
T04DC 003:134.429 - 0.006ms returns 0x00000000
T04DC 003:134.434 JLINK_ReadReg(R3)
T04DC 003:134.439 - 0.006ms returns 0x00000000
T04DC 003:134.443 JLINK_ReadReg(R4)
T04DC 003:134.448 - 0.006ms returns 0x00000000
T04DC 003:134.453 JLINK_ReadReg(R5)
T04DC 003:134.457 - 0.006ms returns 0x00000000
T04DC 003:134.462 JLINK_ReadReg(R6)
T04DC 003:134.466 - 0.006ms returns 0x00000000
T04DC 003:134.471 JLINK_ReadReg(R7)
T04DC 003:134.476 - 0.006ms returns 0x00000000
T04DC 003:134.481 JLINK_ReadReg(R8)
T04DC 003:134.485 - 0.006ms returns 0x00000000
T04DC 003:134.490 JLINK_ReadReg(R9)
T04DC 003:134.494 - 0.006ms returns 0x00000000
T04DC 003:134.499 JLINK_ReadReg(R10)
T04DC 003:134.504 - 0.006ms returns 0x00000000
T04DC 003:134.509 JLINK_ReadReg(R11)
T04DC 003:134.513 - 0.006ms returns 0x00000000
T04DC 003:134.518 JLINK_ReadReg(R12)
T04DC 003:134.522 - 0.006ms returns 0x00000000
T04DC 003:134.527 JLINK_ReadReg(R13 (SP))
T04DC 003:134.532 - 0.006ms returns 0xE3EFDFFB
T04DC 003:134.537 JLINK_ReadReg(R14)
T04DC 003:134.541 - 0.006ms returns 0xFFFFFFFF
T04DC 003:134.546 JLINK_ReadReg(R15 (PC))
T04DC 003:134.551 - 0.006ms returns 0xDFBFDFD6
T04DC 003:134.555 JLINK_ReadReg(XPSR)
T04DC 003:134.560 - 0.006ms returns 0x01000000
T04DC 003:134.565 JLINK_ReadReg(MSP)
T04DC 003:134.569 - 0.006ms returns 0xE3EFDFFB
T04DC 003:134.574 JLINK_ReadReg(PSP)
T04DC 003:134.578 - 0.006ms returns 0x00000000
T04DC 003:134.583 JLINK_ReadReg(CFBP)
T04DC 003:134.588 - 0.006ms returns 0x00000000
T04DC 003:134.593 JLINK_ReadReg(FPSCR)
T04DC 003:134.597 - 0.006ms returns 0x00000000
T04DC 003:134.602 JLINK_ReadReg(FPS0)
T04DC 003:134.606 - 0.006ms returns 0x00000000
T04DC 003:134.611 JLINK_ReadReg(FPS1)
T04DC 003:134.616 - 0.006ms returns 0x00000000
T04DC 003:134.621 JLINK_ReadReg(FPS2)
T04DC 003:134.625 - 0.006ms returns 0x00000000
T04DC 003:134.631 JLINK_ReadReg(FPS3)
T04DC 003:134.635 - 0.007ms returns 0x00000000
T04DC 003:134.640 JLINK_ReadReg(FPS4)
T04DC 003:134.645 - 0.006ms returns 0x00000000
T04DC 003:134.650 JLINK_ReadReg(FPS5)
T04DC 003:134.654 - 0.006ms returns 0x00000000
T04DC 003:134.659 JLINK_ReadReg(FPS6)
T04DC 003:134.663 - 0.006ms returns 0x00000000
T04DC 003:134.668 JLINK_ReadReg(FPS7)
T04DC 003:134.673 - 0.006ms returns 0x00000000
T04DC 003:134.678 JLINK_ReadReg(FPS8)
T04DC 003:134.682 - 0.006ms returns 0x00000000
T04DC 003:134.687 JLINK_ReadReg(FPS9)
T04DC 003:134.691 - 0.006ms returns 0x00000000
T04DC 003:134.696 JLINK_ReadReg(FPS10)
T04DC 003:134.701 - 0.006ms returns 0x00000000
T04DC 003:134.706 JLINK_ReadReg(FPS11)
T04DC 003:134.710 - 0.006ms returns 0x00000000
T04DC 003:134.715 JLINK_ReadReg(FPS12)
T04DC 003:134.719 - 0.006ms returns 0x00000000
T04DC 003:134.724 JLINK_ReadReg(FPS13)
T04DC 003:134.728 - 0.006ms returns 0x00000000
T04DC 003:134.733 JLINK_ReadReg(FPS14)
T04DC 003:134.738 - 0.006ms returns 0x00000000
T04DC 003:134.743 JLINK_ReadReg(FPS15)
T04DC 003:134.747 - 0.006ms returns 0xFFFFFFFF
T04DC 003:134.752 JLINK_ReadReg(FPS16)
T04DC 003:134.756 - 0.006ms returns 0x00000000
T04DC 003:134.761 JLINK_ReadReg(FPS17)
T04DC 003:134.766 - 0.006ms returns 0x00000000
T04DC 003:134.771 JLINK_ReadReg(FPS18)
T04DC 003:134.775 - 0.006ms returns 0x00000000
T04DC 003:134.780 JLINK_ReadReg(FPS19)
T04DC 003:134.784 - 0.006ms returns 0x00000000
T04DC 003:134.789 JLINK_ReadReg(FPS20)
T04DC 003:134.794 - 0.006ms returns 0x00000000
T04DC 003:134.799 JLINK_ReadReg(FPS21)
T04DC 003:134.803 - 0.006ms returns 0x00000000
T04DC 003:134.808 JLINK_ReadReg(FPS22)
T04DC 003:134.812 - 0.006ms returns 0x00000000
T04DC 003:134.817 JLINK_ReadReg(FPS23)
T04DC 003:134.822 - 0.006ms returns 0x00000000
T04DC 003:134.827 JLINK_ReadReg(FPS24)
T04DC 003:134.831 - 0.006ms returns 0x00000000
T04DC 003:134.836 JLINK_ReadReg(FPS25)
T04DC 003:134.840 - 0.006ms returns 0x00000000
T04DC 003:134.845 JLINK_ReadReg(FPS26)
T04DC 003:134.849 - 0.006ms returns 0x00000000
T04DC 003:134.854 JLINK_ReadReg(FPS27)
T04DC 003:134.859 - 0.006ms returns 0x00000000
T04DC 003:134.864 JLINK_ReadReg(FPS28)
T04DC 003:134.868 - 0.006ms returns 0x00000000
T04DC 003:134.873 JLINK_ReadReg(FPS29)
T04DC 003:134.878 - 0.006ms returns 0x00000000
T04DC 003:134.882 JLINK_ReadReg(FPS30)
T04DC 003:134.887 - 0.006ms returns 0x00000000
T04DC 003:134.892 JLINK_ReadReg(FPS31)
T04DC 003:134.896 - 0.006ms returns 0xFFFFFFFF
T04DC 003:134.903 JLINK_WriteMemEx(0xE000ED08, 0x0004 Bytes, ..., Flags = 0x02000000)
T04DC 003:134.907   Data:  00 20 00 60
T04DC 003:134.919   CPU_WriteMem(4 bytes @ 0xE000ED08)
T04DC 003:135.583 - 0.684ms returns 0x04
T52C8 003:346.436   JLINK_ReadMemEx(0xDFBFDFD6, 0x0002 Bytes, ..., Flags = 0x02000000)
T52C8 003:346.476   CPU_ReadMem(2 bytes @ 0xDFBFDFD6)
T52C8 003:347.118   Data:  AA AA
T52C8 003:347.137 - 0.704ms returns 0xFFFFFFFF
T52C8 003:347.146   JLINK_ReadMemEx(0xDFBFDFD6, 0x0002 Bytes, ..., Flags = 0x02000000)
T52C8 003:347.159   CPU_ReadMem(2 bytes @ 0xDFBFDFD6)
T52C8 003:347.747   Data:  AA AA
T52C8 003:347.766 - 0.623ms returns 0xFFFFFFFF
T52C8 003:347.775   JLINK_ReadMemEx(0xDFBFDFD6, 0x0002 Bytes, ..., Flags = 0x02000000)
T52C8 003:347.786   CPU_ReadMem(2 bytes @ 0xDFBFDFD6)
T52C8 003:348.441   Data:  AA AA
T52C8 003:348.459 - 0.687ms returns 0xFFFFFFFF
T52C8 003:348.467   JLINK_ReadMemEx(0xDFBFDFD6, 0x0002 Bytes, ..., Flags = 0x02000000)
T52C8 003:348.479   CPU_ReadMem(2 bytes @ 0xDFBFDFD6)
T52C8 003:349.109   Data:  AA AA
T52C8 003:349.124 - 0.659ms returns 0xFFFFFFFF
T52C8 003:349.132   JLINK_ReadMemEx(0xDFBFDFD6, 0x0002 Bytes, ..., Flags = 0x02000000)
T52C8 003:349.143   CPU_ReadMem(2 bytes @ 0xDFBFDFD6)
T52C8 003:349.871   Data:  AA AA
T52C8 003:349.885 - 0.756ms returns 0xFFFFFFFF
T52C8 003:349.893   JLINK_ReadMemEx(0xDFBFDFD6, 0x0001 Bytes, ..., Flags = 0x02000000)
T52C8 003:349.904   CPU_ReadMem(1 bytes @ 0xDFBFDFD6)
T52C8 003:350.563   Data:  AA
T52C8 003:350.577 - 0.686ms returns 0xFFFFFFFF
T52C8 003:350.591   JLINK_SetBPEx(Addr = 0x60002E30, Type = 0xFFFFFFF2)
T52C8 003:350.603 - 0.014ms returns 0x00000001
T52C8 003:350.609   JLINK_SetBPEx(Addr = 0x60008812, Type = 0xFFFFFFF2)
T52C8 003:350.616 - 0.009ms returns 0x00000002
T52C8 003:350.622   JLINK_SetBPEx(Addr = 0x6001072E, Type = 0xFFFFFFF2)
T52C8 003:350.628 - 0.008ms returns 0x00000003
T52C8 003:350.636 JLINK_Go()
T52C8 003:350.657   CPU_WriteMem(4 bytes @ 0xE0002000)
T52C8 003:351.230   CPU_WriteMem(4 bytes @ 0xE0002000)
T52C8 003:351.811   CPU_WriteMem(4 bytes @ 0xE0002000)
T52C8 003:352.354   CPU_ReadMem(4 bytes @ 0xE0001000)
T52C8 003:352.880   CPU_WriteMem(4 bytes @ 0xE0002008)
T52C8 003:352.892   CPU_WriteMem(4 bytes @ 0xE000200C)
T52C8 003:352.899   CPU_WriteMem(4 bytes @ 0xE0002010)
T52C8 003:352.905   CPU_WriteMem(4 bytes @ 0xE0002014)
T52C8 003:352.912   CPU_WriteMem(4 bytes @ 0xE0002018)
T52C8 003:352.918   CPU_WriteMem(4 bytes @ 0xE000201C)
T52C8 003:352.924   CPU_WriteMem(4 bytes @ 0xE0002020)
T52C8 003:352.931   CPU_WriteMem(4 bytes @ 0xE0002024)
T52C8 003:355.181   CPU_WriteMem(4 bytes @ 0xE0001004)
T52C8 003:357.297 - 6.685ms
T52C8 003:457.917 JLINK_IsHalted()
T52C8 003:461.070 - 3.166ms returns TRUE
T52C8 003:461.097 JLINK_Halt()
T52C8 003:461.102 - 0.007ms returns 0x00
T52C8 003:461.107 JLINK_IsHalted()
T52C8 003:461.112 - 0.006ms returns TRUE
T52C8 003:461.117 JLINK_IsHalted()
T52C8 003:461.121 - 0.006ms returns TRUE
T52C8 003:461.126 JLINK_IsHalted()
T52C8 003:461.130 - 0.006ms returns TRUE
T52C8 003:461.177 JLINK_ReadReg(R15 (PC))
T52C8 003:461.185 - 0.010ms returns 0x60002E30
T52C8 003:461.191 JLINK_ReadReg(XPSR)
T52C8 003:461.196 - 0.007ms returns 0x01000000
T52C8 003:461.206 JLINK_ClrBPEx(BPHandle = 0x00000001)
T52C8 003:461.211 - 0.007ms returns 0x00
T52C8 003:461.217 JLINK_ClrBPEx(BPHandle = 0x00000002)
T52C8 003:461.222 - 0.006ms returns 0x00
T52C8 003:461.228 JLINK_ClrBPEx(BPHandle = 0x00000003)
T52C8 003:461.232 - 0.006ms returns 0x00
T52C8 003:461.239 JLINK_ReadMemU32(0xE000ED30, 0x0001 Items, ...)
T52C8 003:461.248   CPU_ReadMem(4 bytes @ 0xE000ED30)
T52C8 003:461.754   Data:  02 00 00 00
T52C8 003:461.762 - 0.525ms returns 1
T52C8 003:461.768 JLINK_ReadMemU32(0xE0001028, 0x0001 Items, ...)
T52C8 003:461.774   CPU_ReadMem(4 bytes @ 0xE0001028)
T52C8 003:462.298   Data:  00 00 00 00
T52C8 003:462.313    - DWT_FUNC[0]
T52C8 003:462.320 - 0.553ms returns 1
T52C8 003:462.327 JLINK_ReadMemU32(0xE0001038, 0x0001 Items, ...)
T52C8 003:462.337   CPU_ReadMem(4 bytes @ 0xE0001038)
T52C8 003:462.806   Data:  00 02 00 00
T52C8 003:462.813    - DWT_FUNC[1]
T52C8 003:462.819 - 0.494ms returns 1
T52C8 003:462.825 JLINK_ReadMemU32(0xE0001048, 0x0001 Items, ...)
T52C8 003:462.831   CPU_ReadMem(4 bytes @ 0xE0001048)
T52C8 003:463.375   Data:  00 00 00 00
T52C8 003:463.384    - DWT_FUNC[2]
T52C8 003:463.390 - 0.567ms returns 1
T52C8 003:463.396 JLINK_ReadMemU32(0xE0001058, 0x0001 Items, ...)
T52C8 003:463.403   CPU_ReadMem(4 bytes @ 0xE0001058)
T52C8 003:463.872   Data:  00 00 00 00
T52C8 003:463.879    - DWT_FUNC[3]
T52C8 003:463.885 - 0.490ms returns 1
T52C8 003:464.047 JLINK_ReadReg(R0)
T52C8 003:464.055 - 0.010ms returns 0x600130F8
T52C8 003:464.060 JLINK_ReadReg(R1)
T52C8 003:464.064 - 0.006ms returns 0x20001228
T52C8 003:464.069 JLINK_ReadReg(R2)
T52C8 003:464.074 - 0.006ms returns 0x80000000
T52C8 003:464.079 JLINK_ReadReg(R3)
T52C8 003:464.083 - 0.006ms returns 0x00000000
T52C8 003:464.088 JLINK_ReadReg(R4)
T52C8 003:464.093 - 0.006ms returns 0x00000000
T52C8 003:464.098 JLINK_ReadReg(R5)
T52C8 003:464.102 - 0.006ms returns 0x00000000
T52C8 003:464.107 JLINK_ReadReg(R6)
T52C8 003:464.111 - 0.006ms returns 0x00000000
T52C8 003:464.116 JLINK_ReadReg(R7)
T52C8 003:464.121 - 0.006ms returns 0x60012E83
T52C8 003:464.126 JLINK_ReadReg(R8)
T52C8 003:464.130 - 0.006ms returns 0x401F4470
T52C8 003:464.135 JLINK_ReadReg(R9)
T52C8 003:464.139 - 0.006ms returns 0x20203A00
T52C8 003:464.144 JLINK_ReadReg(R10)
T52C8 003:464.149 - 0.006ms returns 0x60012EA4
T52C8 003:464.156 JLINK_ReadReg(R11)
T52C8 003:464.163 - 0.008ms returns 0x60012EA4
T52C8 003:464.168 JLINK_ReadReg(R12)
T52C8 003:464.172 - 0.006ms returns 0x00000000
T52C8 003:464.177 JLINK_ReadReg(R13 (SP))
T52C8 003:464.182 - 0.006ms returns 0x20020000
T52C8 003:464.187 JLINK_ReadReg(R14)
T52C8 003:464.192 - 0.006ms returns 0x600024DF
T52C8 003:464.196 JLINK_ReadReg(R15 (PC))
T52C8 003:464.201 - 0.006ms returns 0x60002E30
T52C8 003:464.206 JLINK_ReadReg(XPSR)
T52C8 003:464.210 - 0.006ms returns 0x01000000
T52C8 003:464.215 JLINK_ReadReg(MSP)
T52C8 003:464.220 - 0.006ms returns 0x20020000
T52C8 003:464.225 JLINK_ReadReg(PSP)
T52C8 003:464.229 - 0.006ms returns 0x20020000
T52C8 003:464.234 JLINK_ReadReg(CFBP)
T52C8 003:464.239 - 0.006ms returns 0x04000000
T52C8 003:464.244 JLINK_ReadReg(FPSCR)
T52C8 003:468.378 - 4.162ms returns 0x03000000
T52C8 003:468.410 JLINK_ReadReg(FPS0)
T52C8 003:468.416 - 0.008ms returns 0x00000000
T52C8 003:468.421 JLINK_ReadReg(FPS1)
T52C8 003:468.426 - 0.006ms returns 0x00000000
T52C8 003:468.431 JLINK_ReadReg(FPS2)
T52C8 003:468.435 - 0.006ms returns 0x00000000
T52C8 003:468.440 JLINK_ReadReg(FPS3)
T52C8 003:468.445 - 0.006ms returns 0x00000000
T52C8 003:468.450 JLINK_ReadReg(FPS4)
T52C8 003:468.454 - 0.006ms returns 0x00000000
T52C8 003:468.459 JLINK_ReadReg(FPS5)
T52C8 003:468.464 - 0.006ms returns 0x00000000
T52C8 003:468.469 JLINK_ReadReg(FPS6)
T52C8 003:468.473 - 0.006ms returns 0x00000000
T52C8 003:468.478 JLINK_ReadReg(FPS7)
T52C8 003:468.482 - 0.006ms returns 0x00000000
T52C8 003:468.487 JLINK_ReadReg(FPS8)
T52C8 003:468.492 - 0.006ms returns 0x00000000
T52C8 003:468.497 JLINK_ReadReg(FPS9)
T52C8 003:468.501 - 0.006ms returns 0x00000000
T52C8 003:468.506 JLINK_ReadReg(FPS10)
T52C8 003:468.510 - 0.006ms returns 0x00000000
T52C8 003:468.515 JLINK_ReadReg(FPS11)
T52C8 003:468.520 - 0.006ms returns 0x00000000
T52C8 003:468.525 JLINK_ReadReg(FPS12)
T52C8 003:468.529 - 0.006ms returns 0x00000000
T52C8 003:468.534 JLINK_ReadReg(FPS13)
T52C8 003:468.539 - 0.006ms returns 0x00000000
T52C8 003:468.544 JLINK_ReadReg(FPS14)
T52C8 003:468.548 - 0.006ms returns 0x00000000
T52C8 003:468.553 JLINK_ReadReg(FPS15)
T52C8 003:468.557 - 0.006ms returns 0xFFFFFFFF
T52C8 003:468.562 JLINK_ReadReg(FPS16)
T52C8 003:468.567 - 0.006ms returns 0x00000000
T52C8 003:468.572 JLINK_ReadReg(FPS17)
T52C8 003:468.576 - 0.006ms returns 0x00000000
T52C8 003:468.581 JLINK_ReadReg(FPS18)
T52C8 003:468.585 - 0.006ms returns 0x00000000
T52C8 003:468.590 JLINK_ReadReg(FPS19)
T52C8 003:468.595 - 0.006ms returns 0x00000000
T52C8 003:468.600 JLINK_ReadReg(FPS20)
T52C8 003:468.604 - 0.006ms returns 0x00000000
T52C8 003:468.609 JLINK_ReadReg(FPS21)
T52C8 003:468.613 - 0.006ms returns 0x00000000
T52C8 003:468.618 JLINK_ReadReg(FPS22)
T52C8 003:468.623 - 0.006ms returns 0x00000000
T52C8 003:468.628 JLINK_ReadReg(FPS23)
T52C8 003:468.632 - 0.006ms returns 0x00000000
T52C8 003:468.637 JLINK_ReadReg(FPS24)
T52C8 003:468.641 - 0.006ms returns 0x00000000
T52C8 003:468.646 JLINK_ReadReg(FPS25)
T52C8 003:468.651 - 0.006ms returns 0x00000000
T52C8 003:468.656 JLINK_ReadReg(FPS26)
T52C8 003:468.660 - 0.006ms returns 0x00000000
T52C8 003:468.665 JLINK_ReadReg(FPS27)
T52C8 003:468.669 - 0.006ms returns 0x00000000
T52C8 003:468.674 JLINK_ReadReg(FPS28)
T52C8 003:468.678 - 0.006ms returns 0x00000000
T52C8 003:468.684 JLINK_ReadReg(FPS29)
T52C8 003:468.688 - 0.006ms returns 0x00000000
T52C8 003:468.693 JLINK_ReadReg(FPS30)
T52C8 003:468.697 - 0.006ms returns 0x00000000
T52C8 003:468.702 JLINK_ReadReg(FPS31)
T52C8 003:468.707 - 0.006ms returns 0xFFFFFFFF
T04DC 003:472.862 JLINK_ReadMemU32(0xE0001004, 0x0001 Items, ...)
T04DC 003:472.893   CPU_ReadMem(4 bytes @ 0xE0001004)
T04DC 003:473.430   Data:  08 6D 0D 00
T04DC 003:473.440    - DWT_CYCCNT
T04DC 003:473.446 - 0.586ms returns 1
T04DC 003:477.091   JLINK_ReadMemEx(0x60002D30, 0x003C Bytes, ..., Flags = 0x02000000)
T04DC 003:477.132   CPU_ReadMem(128 bytes @ 0x60002D00)
T04DC 003:478.422    -- Updating C cache (128 bytes @ 0x60002D00)
T04DC 003:478.454    -- Read from C cache (60 bytes @ 0x60002D30)
T04DC 003:478.462   Data:  01 2B 70 47 3A 28 00 D2 30 38 20 F0 20 02 41 2A ...
T04DC 003:478.469 - 1.381ms returns 0x3C
T04DC 003:478.479   JLINK_ReadMemEx(0x60002D30, 0x0002 Bytes, ..., Flags = 0x02000000)
T04DC 003:478.487    -- Read from C cache (2 bytes @ 0x60002D30)
T04DC 003:478.494   Data:  01 2B
T04DC 003:478.500 - 0.023ms returns 0x02
T04DC 003:478.508   JLINK_ReadMemEx(0x60002D32, 0x0002 Bytes, ..., Flags = 0x02000000)
T04DC 003:478.514    -- Read from C cache (2 bytes @ 0x60002D32)
T04DC 003:478.520   Data:  70 47
T04DC 003:478.527 - 0.021ms returns 0x02
T04DC 003:478.534   JLINK_ReadMemEx(0x60002D32, 0x0002 Bytes, ..., Flags = 0x02000000)
T04DC 003:478.540    -- Read from C cache (2 bytes @ 0x60002D32)
T04DC 003:478.546   Data:  70 47
T04DC 003:478.553 - 0.021ms returns 0x02
T04DC 003:478.558   JLINK_ReadMemEx(0x60002D34, 0x003C Bytes, ..., Flags = 0x02000000)
T04DC 003:478.564    -- Read from C cache (60 bytes @ 0x60002D34)
T04DC 003:478.571   Data:  3A 28 00 D2 30 38 20 F0 20 02 41 2A 01 D3 A2 F1 ...
T04DC 003:478.577 - 0.021ms returns 0x3C
T04DC 003:478.582   JLINK_ReadMemEx(0x60002D34, 0x0002 Bytes, ..., Flags = 0x02000000)
T04DC 003:478.588    -- Read from C cache (2 bytes @ 0x60002D34)
T04DC 003:478.594   Data:  3A 28
T04DC 003:478.601 - 0.020ms returns 0x02
T04DC 003:478.606   JLINK_ReadMemEx(0x60002D34, 0x003C Bytes, ..., Flags = 0x02000000)
T04DC 003:478.612    -- Read from C cache (60 bytes @ 0x60002D34)
T04DC 003:478.619   Data:  3A 28 00 D2 30 38 20 F0 20 02 41 2A 01 D3 A2 F1 ...
T04DC 003:478.625 - 0.021ms returns 0x3C
T04DC 003:478.630   JLINK_ReadMemEx(0x60002D34, 0x0002 Bytes, ..., Flags = 0x02000000)
